! TOUCHSTONE file generated by CST DESIGN STUDIO
! Date and time: Thu Jul  9 11:53:30 2026
! Project name: E:\Code\CAE-Agent-Hub\MCP\CST\examples\design_studio_cosim_demo_run\touchstone_nport_block_demo_1783569178.cst
! Tree item: Tasks\SPara1\S-Parameters
! Header version: 2024
! Port assignment regex: !\s*Touchstone port\s*([0-9]+)\s*=\s*(CST MWS port|CST DES external port|CST DES block port)\s*(.+)\s* \(\"(.*)\"\)(\s*mode\s*([0-9]+))?.*
! Touchstone port assignment:
! Touchstone port 1 = CST DES external port 1 ("Input")
! Touchstone port 2 = CST DES external port 2 ("Output")
# GHz S MA R 50
1                    0.999899624 -1.16990728e-05   6.69188824e-05       0.1165408   6.69188824e-05       0.1165408      0.333288721 -1.55999883e-05
1.1                  0.999899624 -1.03630098e-05   6.69189122e-05     0.103231556   6.69189122e-05     0.103231556      0.333288721 -1.38184486e-05
1.2                  0.999899624 -9.22582978e-06   6.69189347e-05    0.0919035182   6.69189347e-05    0.0919035182      0.333288721 -1.23021059e-05
1.3                  0.999899624  -8.2416379e-06   6.69189521e-05    0.0820994862   6.69189521e-05    0.0820994862      0.333288721 -1.09897619e-05
1.4                  0.999899624  -7.3776512e-06   6.69189657e-05    0.0734928889   6.69189657e-05    0.0734928889      0.333288721 -9.83770303e-06
1.5                  0.999899624 -6.60982848e-06   6.69189766e-05    0.0658442401   6.69189766e-05    0.0658442401      0.333288721  -8.8138726e-06
1.6                  0.999899624 -5.92013928e-06   6.69189853e-05    0.0589739252   6.69189853e-05    0.0589739252      0.333288721 -7.89422799e-06
1.7                  0.999899624 -5.29479563e-06   6.69189924e-05    0.0527445914   6.69189924e-05    0.0527445914      0.333288721 -7.06038365e-06
1.8                  0.999899624 -4.72307338e-06   6.69189982e-05    0.0470494088   6.69189982e-05    0.0470494088      0.333288721 -6.29803962e-06
1.9                  0.999899624 -4.19650598e-06    6.6919003e-05    0.0418040379    6.6919003e-05    0.0418040379      0.333288721 -5.59590645e-06
2                    0.999899624 -3.70832021e-06   6.69190069e-05    0.0369410071   6.69190069e-05    0.0369410071      0.333288721 -4.94495257e-06
2.1                  0.999899624 -3.25303312e-06   6.69190101e-05    0.0324056965   6.69190101e-05    0.0324056965      0.333288721 -4.33786669e-06
2.2                  0.999899624 -2.82615832e-06   6.69190127e-05    0.0281534171   6.69190127e-05    0.0281534171      0.333288721 -3.76866684e-06
2.3                  0.999899624 -2.42399014e-06   6.69190149e-05    0.0241472517   6.69190149e-05    0.0241472517      0.333288721 -3.23241139e-06
2.4                  0.999899624 -2.04343998e-06   6.69190166e-05    0.0203564362   6.69190166e-05    0.0203564362      0.333288721  -2.7249823e-06
2.5                  0.999899624 -1.68191394e-06   6.69190179e-05    0.0167551287   6.69190179e-05    0.0167551287      0.333288721 -2.24292043e-06
2.6                  0.999899624  -1.3372168e-06    6.6919019e-05    0.0133214628    6.6919019e-05    0.0133214628      0.333288721 -1.78329881e-06
2.7                  0.999899624 -1.00747872e-06   6.69190198e-05    0.0100368118   6.69190198e-05    0.0100368118      0.333288721 -1.34362407e-06
2.8                  0.999899624    -6.91097e-07   6.69190203e-05   0.00688520972   6.69190203e-05   0.00688520972      0.333288721 -9.21759077e-07
2.9                  0.999899624 -3.86690021e-07   6.69190206e-05   0.00385289298   6.69190206e-05   0.00385289298      0.333288721 -5.15861431e-07
3                    0.999899624 -9.30600623e-08   6.69190208e-05   0.00092793304   6.69190208e-05   0.00092793304      0.333288721 -1.24334423e-07
3.1                  0.999899624  1.90835602e-07   6.69190208e-05  -0.00190005945   6.69190208e-05  -0.00190005945      0.333288721  2.54212666e-07
3.2                  0.999899624  4.65909496e-07   6.69190206e-05  -0.00464017517   6.69190206e-05  -0.00464017517      0.333288721   6.2099669e-07
3.3                  0.999899624  7.32963858e-07   6.69190203e-05  -0.00730040292   6.69190203e-05  -0.00730040292      0.333288721  9.77087017e-07
3.4                  0.999899624  9.92706023e-07   6.69190198e-05  -0.00988779161   6.69190198e-05  -0.00988779161      0.333288721   1.3234272e-06
3.5                  0.999899624  1.24576299e-06   6.69190192e-05   -0.0124085846   6.69190192e-05   -0.0124085846      0.333288721  1.66085296e-06
3.6                  0.999899624  1.49269162e-06   6.69190185e-05   -0.0148683315   6.69190185e-05   -0.0148683315      0.333288721  1.99010717e-06
3.7                  0.999899624  1.73398896e-06   6.69190178e-05    -0.017271982   6.69190178e-05    -0.017271982      0.333288721  2.31185237e-06
3.8                  0.999899624  1.97009958e-06   6.69190169e-05   -0.0196239647   6.69190169e-05   -0.0196239647      0.333288721  2.62668139e-06
3.9                  0.999899624   2.2014223e-06   6.69190159e-05   -0.0219282541   6.69190159e-05   -0.0219282541      0.333288721  2.93512623e-06
4                    0.999899624  2.42831642e-06   6.69190148e-05   -0.0241884272   6.69190148e-05   -0.0241884272      0.333288721  3.23766571e-06
4.1                  0.999899624   2.6511059e-06   6.69190137e-05   -0.0264077119   6.69190137e-05   -0.0264077119      0.333288721  3.53473191e-06
4.2                  0.999899624  2.87008384e-06   6.69190125e-05   -0.0285890289   6.69190125e-05   -0.0285890289      0.333288721  3.82671578e-06
4.3                  0.999899624  3.08551624e-06   6.69190112e-05   -0.0307350271   6.69190112e-05   -0.0307350271      0.333288721  4.11397191e-06
4.4                  0.999899624  3.29764485e-06   6.69190098e-05   -0.0328481146   6.69190098e-05   -0.0328481146      0.333288721  4.39682263e-06
4.5                  0.999899624  3.50668997e-06   6.69190084e-05   -0.0349304854   6.69190084e-05   -0.0349304854      0.333288721  4.67556164e-06
4.6                  0.999899624  3.71285256e-06   6.69190069e-05   -0.0369841427   6.69190069e-05   -0.0369841427      0.333288721  4.95045709e-06
4.7                  0.999899624  3.91631663e-06   6.69190053e-05   -0.0390109193   6.69190053e-05   -0.0390109193      0.333288721  5.22175431e-06
4.8                  0.999899624  4.11725088e-06   6.69190037e-05   -0.0410124953   6.69190037e-05   -0.0410124953      0.333288721  5.48967818e-06
4.9                  0.999899624  4.31581031e-06    6.6919002e-05   -0.0429904136    6.6919002e-05   -0.0429904136      0.333288721  5.75443524e-06
5                    0.999899624   4.5121372e-06   6.69190002e-05   -0.0449460936   6.69190002e-05   -0.0449460936      0.333288721  6.01621548e-06
5.1                  0.999899624  4.70636291e-06   6.69189984e-05   -0.0468808434   6.69189984e-05   -0.0468808434      0.333288721  6.27519402e-06
5.2                  0.999899624  4.89860879e-06   6.69189965e-05   -0.0487958705   6.69189965e-05   -0.0487958705      0.333288721  6.53153249e-06
5.3                  0.999899624   5.0889869e-06   6.69189946e-05   -0.0506922913   6.69189946e-05   -0.0506922913      0.333288721  6.78538031e-06
5.4                  0.999899624  5.27760083e-06   6.69189926e-05   -0.0525711396   6.69189926e-05   -0.0525711396      0.333288721  7.03687587e-06
5.5                  0.999899624  5.46454687e-06   6.69189906e-05   -0.0544333737   6.69189906e-05   -0.0544333737      0.333288721  7.28614746e-06
5.6                  0.999899624  5.64991443e-06   6.69189885e-05   -0.0562798837   6.69189885e-05   -0.0562798837      0.333288721  7.53331422e-06
5.7                  0.999899624  5.83378666e-06   6.69189864e-05   -0.0581114972   6.69189864e-05   -0.0581114972      0.333288721  7.77848693e-06
5.8                  0.999899624  6.01624071e-06   6.69189842e-05   -0.0599289847   6.69189842e-05   -0.0599289847      0.333288721  8.02176872e-06
5.9                  0.999899624  6.19734878e-06    6.6918982e-05   -0.0617330644    6.6918982e-05   -0.0617330644      0.333288721  8.26325574e-06
6                    0.999899624  6.37717824e-06   6.69189797e-05   -0.0635244068   6.69189797e-05   -0.0635244068      0.333288721  8.50303773e-06
6.1                  0.999899624  6.55579184e-06   6.69189773e-05   -0.0653036382   6.69189773e-05   -0.0653036382      0.333288721  8.74119854e-06
6.2                  0.999899624  6.73324842e-06    6.6918975e-05   -0.0670713447    6.6918975e-05   -0.0670713447      0.333288721   8.9778166e-06
6.3                  0.999899624  6.90960315e-06   6.69189725e-05   -0.0688280751   6.69189725e-05   -0.0688280751      0.333288721  9.21296539e-06
6.4                  0.999899624  7.08490774e-06   6.69189701e-05   -0.0705743438   6.69189701e-05   -0.0705743438      0.333288721  9.44671377e-06
6.5                  0.999899624  7.25921048e-06   6.69189675e-05   -0.0723106337   6.69189675e-05   -0.0723106337      0.333288721  9.67912636e-06
6.6                  0.999899624  7.43255696e-06   6.69189649e-05   -0.0740373984   6.69189649e-05   -0.0740373984      0.333288721   9.9102639e-06
6.7                  0.999899625  7.60499006e-06   6.69189623e-05   -0.0757550644   6.69189623e-05   -0.0757550644      0.333288721  1.01401835e-05
6.8                  0.999899625   7.7765501e-06   6.69189597e-05    -0.077464033   6.69189597e-05    -0.077464033      0.333288721  1.03689388e-05
6.9                  0.999899625  7.94727494e-06   6.69189569e-05   -0.0791646824   6.69189569e-05   -0.0791646824      0.333288721  1.05965805e-05
7                    0.999899625  8.11720036e-06   6.69189542e-05   -0.0808573692   6.69189542e-05   -0.0808573692      0.333288721  1.08231563e-05
7.1                  0.999899625  8.28636024e-06   6.69189514e-05   -0.0825424298   6.69189514e-05   -0.0825424298      0.333288721  1.10487112e-05
7.2                  0.999899625   8.4547864e-06   6.69189485e-05   -0.0842201819   6.69189485e-05   -0.0842201819      0.333288721  1.12732878e-05
7.3                  0.999899625  8.62250901e-06   6.69189456e-05   -0.0858909258   6.69189456e-05   -0.0858909258      0.333288721  1.14969262e-05
7.4                  0.999899625  8.78955653e-06   6.69189427e-05   -0.0875549458   6.69189427e-05   -0.0875549458      0.333288721  1.17196646e-05
7.5                  0.999899625  8.95595613e-06   6.69189397e-05   -0.0892125107   6.69189397e-05   -0.0892125107      0.333288721  1.19415388e-05
7.6                  0.999899625  9.12173326e-06   6.69189367e-05   -0.0908638753   6.69189367e-05   -0.0908638753      0.333288721  1.21625831e-05
7.7                  0.999899625  9.28691214e-06   6.69189336e-05   -0.0925092812   6.69189336e-05   -0.0925092812      0.333288721  1.23828297e-05
7.8                  0.999899625  9.45151585e-06   6.69189305e-05   -0.0941489576   6.69189305e-05   -0.0941489576      0.333288721  1.26023093e-05
7.9                  0.999899625  9.61556619e-06   6.69189273e-05    -0.095783122   6.69189273e-05    -0.095783122      0.333288721  1.28210511e-05
8                    0.999899625  9.77908393e-06   6.69189241e-05   -0.0974119811   6.69189241e-05   -0.0974119811      0.333288721  1.30390826e-05
8.1                  0.999899625  9.94208882e-06   6.69189209e-05   -0.0990357315   6.69189209e-05   -0.0990357315      0.333288721  1.32564303e-05
8.2                  0.999899625  1.01045995e-05   6.69189176e-05     -0.10065456   6.69189176e-05     -0.10065456      0.333288721  1.34731191e-05
8.3                  0.999899625   1.0266634e-05   6.69189142e-05    -0.102268644   6.69189142e-05    -0.102268644      0.333288721  1.36891729e-05
8.4                  0.999899625  1.04282092e-05   6.69189109e-05    -0.103878154   6.69189109e-05    -0.103878154      0.333288721  1.39046142e-05
8.5                  0.999899625  1.05893414e-05   6.69189074e-05    -0.105483251   6.69189074e-05    -0.105483251      0.333288721  1.41194648e-05
8.6                  0.999899625  1.07500459e-05    6.6918904e-05    -0.107084089    6.6918904e-05    -0.107084089      0.333288721  1.43337452e-05
8.7                  0.999899625  1.09103377e-05   6.69189005e-05    -0.108680814   6.69189005e-05    -0.108680814      0.333288721  1.45474751e-05
8.8                  0.999899625  1.10702306e-05   6.69188969e-05    -0.110273567   6.69188969e-05    -0.110273567      0.333288721  1.47606733e-05
8.9                  0.999899625  1.12297382e-05   6.69188933e-05    -0.111862482   6.69188933e-05    -0.111862482      0.333288721  1.49733576e-05
9                    0.999899625  1.13888733e-05   6.69188897e-05    -0.113447686   6.69188897e-05    -0.113447686      0.333288721  1.51855452e-05
9.1                  0.999899625  1.15476481e-05    6.6918886e-05    -0.115029303    6.6918886e-05    -0.115029303      0.333288721  1.53972525e-05
9.2                  0.999899626  1.17060745e-05   6.69188823e-05    -0.116607448   6.69188823e-05    -0.116607448      0.333288721  1.56084952e-05
9.3                  0.999899626  1.18641636e-05   6.69188785e-05    -0.118182235   6.69188785e-05    -0.118182235      0.333288721  1.58192882e-05
9.4                  0.999899626  1.20219264e-05   6.69188747e-05    -0.119753769   6.69188747e-05    -0.119753769      0.333288721  1.60296458e-05
9.5                  0.999899626  1.21793728e-05   6.69188708e-05    -0.121322155   6.69188708e-05    -0.121322155      0.333288721  1.62395818e-05
9.6                  0.999899626  1.23365131e-05   6.69188669e-05    -0.122887489   6.69188669e-05    -0.122887489      0.333288721  1.64491094e-05
9.7                  0.999899626  1.24933564e-05    6.6918863e-05    -0.124449868    6.6918863e-05    -0.124449868      0.333288721  1.66582413e-05
9.8                  0.999899626  1.26499121e-05    6.6918859e-05     -0.12600938    6.6918859e-05     -0.12600938      0.333288721  1.68669895e-05
9.9                  0.999899626  1.28061887e-05    6.6918855e-05    -0.127566113    6.6918855e-05    -0.127566113      0.333288721  1.70753656e-05
10                   0.999899626  1.29621947e-05   6.69188509e-05     -0.12912015   6.69188509e-05     -0.12912015      0.333288721  1.72833808e-05
